! rf-tools.com
! Date: Sat Jul 09 2022 15:43:30 GMT+0200 (Mitteleuropäische Sommerzeit)
# Hz S DB R 50.00
!Frequency        S11 dB       S11 Deg       S21 dB      S21 Deg      S12 dB      S12 Deg      S22 dB       S22 Deg      
25522709562.63228    -0.00000    179.08528    -126.47032    -90.70358    -126.47032    -90.70358    -0.00000    179.50755
25567143011.75994    -0.00000    179.08359    -126.42210    -90.70489    -126.42210    -90.70489    -0.00000    179.50664
25611653816.75753    -0.00000    179.08189    -126.37386    -90.70619    -126.37386    -90.70619    -0.00000    179.50573
25656242112.29682    -0.00000    179.08019    -126.32562    -90.70750    -126.32562    -90.70750    -0.00000    179.50481
25700908033.28401    -0.00000    179.07848    -126.27737    -90.70881    -126.27737    -90.70881    -0.00000    179.50389
25745651714.86008    -0.00000    179.07677    -126.22910    -90.71013    -126.22910    -90.71013    -0.00000    179.50297
25790473292.40158    -0.00000    179.07506    -126.18083    -90.71144    -126.18083    -90.71144    -0.00000    179.50205
25835372901.52043    -0.00000    179.07335    -126.13254    -90.71276    -126.13254    -90.71276    -0.00000    179.50113
25880350678.06475    -0.00000    179.07163    -126.08425    -90.71409    -126.08425    -90.71409    -0.00000    179.50020
25925406758.11917    -0.00000    179.06990    -126.03594    -90.71541    -126.03594    -90.71541    -0.00000    179.49928
25970541278.00523    -0.00000    179.06818    -125.98762    -90.71674    -125.98762    -90.71674    -0.00000    179.49835
26015754374.28180    -0.00000    179.06645    -125.93930    -90.71807    -125.93930    -90.71807    -0.00000    179.49742
26061046183.74546    -0.00000    179.06471    -125.89096    -90.71940    -125.89096    -90.71940    -0.00000    179.49648
26106416843.43100    -0.00000    179.06298    -125.84261    -90.72074    -125.84261    -90.72074    -0.00000    179.49555
26151866490.61174    -0.00000    179.06124    -125.79425    -90.72208    -125.79425    -90.72208    -0.00000    179.49461
26197395262.79988    -0.00000    179.05949    -125.74588    -90.72342    -125.74588    -90.72342    -0.00000    179.49367
26243003297.74735    -0.00000    179.05774    -125.69749    -90.72476    -125.69749    -90.72476    -0.00000    179.49273
26288690733.44558    -0.00000    179.05599    -125.64910    -90.72611    -125.64910    -90.72611    -0.00000    179.49179
26334457708.12634    -0.00000    179.05424    -125.60070    -90.72746    -125.60070    -90.72746    -0.00000    179.49084
26380304360.26204    -0.00000    179.05248    -125.55228    -90.72881    -125.55228    -90.72881    -0.00000    179.48989
26426230828.56617    -0.00000    179.05072    -125.50385    -90.73017    -125.50385    -90.73017    -0.00000    179.48895
26472237251.99372    -0.00000    179.04895    -125.45542    -90.73153    -125.45542    -90.73153    -0.00000    179.48799
26518323769.74158    -0.00000    179.04718    -125.40697    -90.73289    -125.40697    -90.73289    -0.00000    179.48704
26564490521.24898    -0.00000    179.04541    -125.35851    -90.73425    -125.35851    -90.73425    -0.00000    179.48609
26610737646.19790    -0.00000    179.04363    -125.31003    -90.73562    -125.31003    -90.73562    -0.00000    179.48513
26657065284.51340    -0.00000    179.04185    -125.26155    -90.73699    -125.26155    -90.73699    -0.00000    179.48417
26703473576.36444    -0.00000    179.04006    -125.21306    -90.73836    -125.21306    -90.73836    -0.00000    179.48321
26749962662.16371    -0.00000    179.03827    -125.16455    -90.73974    -125.16455    -90.73974    -0.00000    179.48225
26796532682.56845    -0.00000    179.03648    -125.11603    -90.74112    -125.11603    -90.74112    -0.00000    179.48128
26843183778.48077    -0.00000    179.03468    -125.06750    -90.74250    -125.06750    -90.74250    -0.00000    179.48032
26889916091.04807    -0.00000    179.03288    -125.01896    -90.74388    -125.01896    -90.74388    -0.00000    179.47935
26936729761.66351    -0.00000    179.03108    -124.97041    -90.74527    -124.97041    -90.74527    -0.00000    179.47838
26983624931.96638    -0.00000    179.02927    -124.92185    -90.74666    -124.92185    -90.74666    -0.00000    179.47740
27030601743.84257    -0.00000    179.02746    -124.87327    -90.74806    -124.87327    -90.74806    -0.00000    179.47643
27077660339.42497    -0.00000    179.02565    -124.82469    -90.74945    -124.82469    -90.74945    -0.00000    179.47545
27124800861.09382    -0.00000    179.02383    -124.77609    -90.75085    -124.77609    -90.75085    -0.00000    179.47447
27172023451.47755    -0.00000    179.02200    -124.72748    -90.75225    -124.72748    -90.75225    -0.00000    179.47349
27219328253.45259    -0.00000    179.02018    -124.67885    -90.75366    -124.67885    -90.75366    -0.00000    179.47251
27266715410.14420    -0.00000    179.01835    -124.63022    -90.75507    -124.63022    -90.75507    -0.00000    179.47152
27314185064.92681    -0.00000    179.01651    -124.58157    -90.75648    -124.58157    -90.75648    -0.00000    179.47053
27361737361.42447    -0.00000    179.01468    -124.53291    -90.75789    -124.53291    -90.75789    -0.00000    179.46954
27409372443.51125    -0.00000    179.01283    -124.48424    -90.75931    -124.48424    -90.75931    -0.00000    179.46855
27457090455.31173    -0.00000    179.01099    -124.43556    -90.76073    -124.43556    -90.76073    -0.00000    179.46756
27504891541.20136    -0.00000    179.00914    -124.38687    -90.76215    -124.38687    -90.76215    -0.00000    179.46656
27552775845.80698    -0.00000    179.00728    -124.33816    -90.76358    -124.33816    -90.76358    -0.00000    179.46556
27600743514.00706    -0.00000    179.00542    -124.28944    -90.76501    -124.28944    -90.76501    -0.00000    179.46456
27648794690.93268    -0.00000    179.00356    -124.24071    -90.76644    -124.24071    -90.76644    -0.00000    179.46356
27696929521.96721    -0.00000    179.00170    -124.19196    -90.76787    -124.19196    -90.76787    -0.00000    179.46256
27745148152.74725    -0.00000    178.99983    -124.14321    -90.76931    -124.14321    -90.76931    -0.00000    179.46155
27793450729.16293    -0.00000    178.99795    -124.09444    -90.77075    -124.09444    -90.77075    -0.00000    179.46054
27841837397.35840    -0.00000    178.99608    -124.04566    -90.77220    -124.04566    -90.77220    -0.00000    179.45953
27890308303.73220    -0.00000    178.99419    -123.99687    -90.77364    -123.99687    -90.77364    -0.00000    179.45852
27938863594.93776    -0.00000    178.99231    -123.94806    -90.77509    -123.94806    -90.77509    -0.00000    179.45750
27987503417.88382    -0.00000    178.99042    -123.89924    -90.77655    -123.89924    -90.77655    -0.00000    179.45649
28036227919.73489    -0.00000    178.98853    -123.85041    -90.77800    -123.85041    -90.77800    -0.00000    179.45547
28085037247.91154    -0.00000    178.98663    -123.80157    -90.77946    -123.80157    -90.77946    -0.00000    179.45444
28133931550.09138    -0.00000    178.98473    -123.75271    -90.78093    -123.75271    -90.78093    -0.00000    179.45342
28182910974.20872    -0.00000    178.98282    -123.70384    -90.78239    -123.70384    -90.78239    -0.00000    179.45239
28231975668.45558    -0.00000    178.98091    -123.65496    -90.78386    -123.65496    -90.78386    -0.00000    179.45137
28281125781.28193    -0.00000    178.97900    -123.60606    -90.78533    -123.60606    -90.78533    -0.00000    179.45034
28330361461.39621    -0.00000    178.97708    -123.55715    -90.78681    -123.55715    -90.78681    -0.00000    179.44930
28379682857.76575    -0.00000    178.97515    -123.50823    -90.78829    -123.50823    -90.78829    -0.00000    179.44827
28429090119.61720    -0.00000    178.97323    -123.45930    -90.78977    -123.45930    -90.78977    -0.00000    179.44723
28478583396.43704    -0.00000    178.97130    -123.41035    -90.79126    -123.41035    -90.79126    -0.00000    179.44619
28528162837.97196    -0.00000    178.96936    -123.36139    -90.79274    -123.36139    -90.79274    -0.00000    179.44515
28577828594.22926    -0.00000    178.96742    -123.31242    -90.79423    -123.31242    -90.79423    -0.00000    179.44411
28627580815.47773    -0.00000    178.96548    -123.26343    -90.79573    -123.26343    -90.79573    -0.00000    179.44306
28677419652.24743    -0.00000    178.96353    -123.21443    -90.79723    -123.21443    -90.79723    -0.00000    179.44201
28727345255.33059    -0.00000    178.96158    -123.16542    -90.79873    -123.16542    -90.79873    -0.00000    179.44096
28777357775.78195    -0.00000    178.95963    -123.11639    -90.80023    -123.11639    -90.80023    -0.00000    179.43991
28827457364.91926    -0.00000    178.95767    -123.06735    -90.80174    -123.06735    -90.80174    -0.00000    179.43885
28877644174.32367    -0.00000    178.95570    -123.01830    -90.80325    -123.01830    -90.80325    -0.00000    179.43780
28927918355.84023    -0.00000    178.95373    -122.96923    -90.80476    -122.96923    -90.80476    -0.00000    179.43674
28978280061.57837    -0.00000    178.95176    -122.92015    -90.80628    -122.92015    -90.80628    -0.00000    179.43567
29028729443.91219    -0.00000    178.94978    -122.87106    -90.80780    -122.87106    -90.80780    -0.00000    179.43461
29079266655.48141    -0.00000    178.94780    -122.82195    -90.80933    -122.82195    -90.80933    -0.00000    179.43354
29129891849.19116    -0.00000    178.94582    -122.77283    -90.81085    -122.77283    -90.81085    -0.00000    179.43247
29180605178.21286    -0.00000    178.94383    -122.72369    -90.81238    -122.72369    -90.81238    -0.00000    179.43140
29231406795.98462    -0.00000    178.94183    -122.67454    -90.81392    -122.67454    -90.81392    -0.00000    179.43033
29282296856.21165    -0.00000    178.93984    -122.62538    -90.81546    -122.62538    -90.81546    -0.00000    179.42925
29333275512.86676    -0.00000    178.93783    -122.57620    -90.81700    -122.57620    -90.81700    -0.00000    179.42818
29384342920.19081    -0.00000    178.93583    -122.52701    -90.81854    -122.52701    -90.81854    -0.00000    179.42710
29435499232.69321    -0.00000    178.93381    -122.47780    -90.82009    -122.47780    -90.82009    -0.00000    179.42601
29486744605.15233    -0.00000    178.93180    -122.42858    -90.82164    -122.42858    -90.82164    -0.00000    179.42493
29538079192.61590    -0.00000    178.92978    -122.37935    -90.82319    -122.37935    -90.82319    -0.00000    179.42384
29589503150.40193    -0.00000    178.92775    -122.33010    -90.82475    -122.33010    -90.82475    -0.00000    179.42275
29641016634.09846    -0.00000    178.92572    -122.28084    -90.82631    -122.28084    -90.82631    -0.00000    179.42166
29692619799.56454    -0.00000    178.92369    -122.23156    -90.82787    -122.23156    -90.82787    -0.00000    179.42056
29744312802.93055    -0.00000    178.92165    -122.18227    -90.82944    -122.18227    -90.82944    -0.00000    179.41947
29796095800.59868    -0.00000    178.91961    -122.13297    -90.83101    -122.13297    -90.83101    -0.00000    179.41837
29847968949.24342    -0.00000    178.91756    -122.08365    -90.83259    -122.08365    -90.83259    -0.00000    179.41726
29899932405.81199    -0.00000    178.91551    -122.03431    -90.83416    -122.03431    -90.83416    -0.00000    179.41616
29951986327.52488    -0.00000    178.91346    -121.98497    -90.83575    -121.98497    -90.83575    -0.00000    179.41505
30004130871.87627    -0.00000    178.91140    -121.93560    -90.83733    -121.93560    -90.83733    -0.00000    179.41394
30056366196.63441    -0.00000    178.90933    -121.88622    -90.83892    -121.88622    -90.83892    -0.00000    179.41283
30108692459.84260    -0.00000    178.90726    -121.83683    -90.84051    -121.83683    -90.84051    -0.00000    179.41172
30161109819.81889    -0.00000    178.90519    -121.78742    -90.84211    -121.78742    -90.84211    -0.00000    179.41060
30213618435.15708    -0.00000    178.90311    -121.73800    -90.84370    -121.73800    -90.84370    -0.00000    179.40948
30266218464.72708    -0.00000    178.90103    -121.68856    -90.84531    -121.68856    -90.84531    -0.00000    179.40836
30318910067.67538    -0.00000    178.89894    -121.63911    -90.84691    -121.63911    -90.84691    -0.00000    179.40724
30371693403.42554    -0.00000    178.89685    -121.58964    -90.84852    -121.58964    -90.84852    -0.00000    179.40611
30424568631.67864    -0.00000    178.89475    -121.54016    -90.85013    -121.54016    -90.85013    -0.00000    179.40498
30477535912.41383    -0.00000    178.89265    -121.49066    -90.85175    -121.49066    -90.85175    -0.00000    179.40385
30530595405.88874    -0.00000    178.89054    -121.44115    -90.85337    -121.44115    -90.85337    -0.00000    179.40272
30583747272.63990    -0.00000    178.88843    -121.39162    -90.85499    -121.39162    -90.85499    -0.00000    179.40158
30636991673.48367    -0.00000    178.88631    -121.34208    -90.85662    -121.34208    -90.85662    -0.00000    179.40044
30690328769.51604    -0.00000    178.88419    -121.29252    -90.85825    -121.29252    -90.85825    -0.00000    179.39930
30743758722.11354    -0.00000    178.88207    -121.24295    -90.85989    -121.24295    -90.85989    -0.00000    179.39816
30797281692.93370    -0.00000    178.87994    -121.19336    -90.86153    -121.19336    -90.86153    -0.00000    179.39701
30850897843.91544    -0.00000    178.87780    -121.14375    -90.86317    -121.14375    -90.86317    -0.00000    179.39586
30904607337.27962    -0.00000    178.87567    -121.09413    -90.86481    -121.09413    -90.86481    -0.00000    179.39471
30958410335.52953    -0.00000    178.87352    -121.04449    -90.86646    -121.04449    -90.86646    -0.00000    179.39356
31012307001.45135    -0.00000    178.87137    -120.99484    -90.86811    -120.99484    -90.86811    -0.00000    179.39240
31066297498.11468    -0.00000    178.86922    -120.94517    -90.86977    -120.94517    -90.86977    -0.00000    179.39124
31120381988.87286    -0.00000    178.86706    -120.89549    -90.87143    -120.89549    -90.87143    -0.00000    179.39008
31174560637.36402    -0.00000    178.86490    -120.84579    -90.87309    -120.84579    -90.87309    -0.00000    179.38891
31228833607.51079    -0.00000    178.86273    -120.79607    -90.87476    -120.79607    -90.87476    -0.00000    179.38775
31283201063.52130    -0.00000    178.86056    -120.74634    -90.87643    -120.74634    -90.87643    -0.00000    179.38658
31337663169.88956    -0.00000    178.85838    -120.69659    -90.87811    -120.69659    -90.87811    -0.00000    179.38540
31392220091.39595    -0.00000    178.85620    -120.64683    -90.87979    -120.64683    -90.87979    -0.00000    179.38423
31446871993.10773    -0.00000    178.85401    -120.59705    -90.88147    -120.59705    -90.88147    -0.00000    179.38305
31501619040.37952    -0.00000    178.85182    -120.54725    -90.88316    -120.54725    -90.88316    -0.00000    179.38187
31556461398.85383    -0.00000    178.84962    -120.49744    -90.88485    -120.49744    -90.88485    -0.00000    179.38069
31611399234.46153    -0.00000    178.84742    -120.44761    -90.88654    -120.44761    -90.88654    -0.00000    179.37950
31666432713.42223    -0.00000    178.84521    -120.39776    -90.88824    -120.39776    -90.88824    -0.00000    179.37831
31721562002.24532    -0.00000    178.84300    -120.34790    -90.88994    -120.34790    -90.88994    -0.00000    179.37712
31776787267.72968    -0.00000    178.84078    -120.29802    -90.89164    -120.29802    -90.89164    -0.00000    179.37593
31832108676.96471    -0.00000    178.83856    -120.24812    -90.89335    -120.24812    -90.89335    -0.00000    179.37473
31887526397.33068    -0.00000    178.83633    -120.19821    -90.89507    -120.19821    -90.89507    -0.00000    179.37354
31943040596.49930    -0.00000    178.83410    -120.14828    -90.89678    -120.14828    -90.89678    -0.00000    179.37233
31998651442.43414    -0.00000    178.83186    -120.09833    -90.89850    -120.09833    -90.89850    -0.00000    179.37113
32054359103.39122    -0.00000    178.82962    -120.04837    -90.90023    -120.04837    -90.90023    -0.00000    179.36992
32110163747.91946    -0.00000    178.82738    -119.99839    -90.90196    -119.99839    -90.90196    -0.00000    179.36871
32166065544.86109    -0.00000    178.82512    -119.94839    -90.90369    -119.94839    -90.90369    -0.00000    179.36750
32222064663.35269    -0.00000    178.82287    -119.89838    -90.90542    -119.89838    -90.90542    -0.00000    179.36629
32278161272.82488    -0.00000    178.82060    -119.84835    -90.90716    -119.84835    -90.90716    -0.00000    179.36507
32334355543.00340    -0.00000    178.81834    -119.79830    -90.90891    -119.79830    -90.90891    -0.00000    179.36385
32390647643.90945    -0.00000    178.81606    -119.74823    -90.91066    -119.74823    -90.91066    -0.00000    179.36262
32447037745.86026    -0.00000    178.81379    -119.69815    -90.91241    -119.69815    -90.91241    -0.00000    179.36140
32503526019.46953    -0.00000    178.81150    -119.64805    -90.91417    -119.64805    -90.91417    -0.00000    179.36017
32560112635.64801    -0.00000    178.80921    -119.59793    -90.91593    -119.59793    -90.91593    -0.00000    179.35894
32616797765.60400    -0.00000    178.80692    -119.54779    -90.91769    -119.54779    -90.91769    -0.00000    179.35770
32673581580.84386    -0.00000    178.80462    -119.49764    -90.91946    -119.49764    -90.91946    -0.00000    179.35646
32730464253.17239    -0.00000    178.80232    -119.44747    -90.92123    -119.44747    -90.92123    -0.00000    179.35522
32787445954.69389    -0.00000    178.80001    -119.39728    -90.92301    -119.39728    -90.92301    -0.00000    179.35398
32844526857.81190    -0.00000    178.79769    -119.34707    -90.92479    -119.34707    -90.92479    -0.00000    179.35273
32901707135.23023    -0.00000    178.79537    -119.29684    -90.92657    -119.29684    -90.92657    -0.00000    179.35149
32958986959.95333    -0.00000    178.79305    -119.24660    -90.92836    -119.24660    -90.92836    -0.00000    179.35023
33016366505.28689    -0.00000    178.79072    -119.19634    -90.93015    -119.19634    -90.93015    -0.00000    179.34898
33073845944.83827    -0.00000    178.78838    -119.14606    -90.93195    -119.14606    -90.93195    -0.00000    179.34772
33131425452.51709    -0.00000    178.78604    -119.09576    -90.93375    -119.09576    -90.93375    -0.00000    179.34646
33189105202.53574    -0.00000    178.78370    -119.04545    -90.93555    -119.04545    -90.93555    -0.00000    179.34520
33246885369.40989    -0.00000    178.78134    -118.99511    -90.93736    -118.99511    -90.93736    -0.00000    179.34393
33304766127.95890    -0.00000    178.77899    -118.94476    -90.93918    -118.94476    -90.93918    -0.00000    179.34266
33362747653.30690    -0.00000    178.77662    -118.89439    -90.94099    -118.89439    -90.94099    -0.00000    179.34139
33420830120.88246    -0.00000    178.77426    -118.84400    -90.94281    -118.84400    -90.94281    -0.00000    179.34012
33479013706.41973    -0.00000    178.77188    -118.79359    -90.94464    -118.79359    -90.94464    -0.00000    179.33884
33537298585.95879    -0.00000    178.76950    -118.74316    -90.94647    -118.74316    -90.94647    -0.00000    179.33756
33595684935.84618    -0.00000    178.76712    -118.69272    -90.94830    -118.69272    -90.94830    -0.00000    179.33627
33654172932.73549    -0.00000    178.76473    -118.64225    -90.95014    -118.64225    -90.95014    -0.00000    179.33499
33712762753.58779    -0.00000    178.76233    -118.59177    -90.95199    -118.59177    -90.95199    -0.00000    179.33370
33771454575.67229    -0.00000    178.75993    -118.54126    -90.95383    -118.54126    -90.95383    -0.00000    179.33241
